
**** 11/13/19 15:42:36 ****** PSpice Lite (October 2012) ****** ID# 10813 ****

 ** Profile: "SCHEMATIC1-fm"  [ d:\rohit pspice\fm-pspicefiles\schematic1\fm.sim ] 


 ****     CIRCUIT DESCRIPTION


******************************************************************************




** Creating circuit file "fm.cir" 
** WARNING: THIS AUTOMATICALLY GENERATED FILE MAY BE OVERWRITTEN BY SUBSEQUENT SIMULATIONS

*Libraries: 
* Profile Libraries :
* Local Libraries :
* From [PSPICE NETLIST] section of C:\SPB_Data\cdssetup\OrCAD_PSpice/16.6.0/PSpice.ini file:
.lib "nomd.lib" 

*Analysis directives: 
.TRAN  0 100ms 0 0.0001 
.OPTIONS ADVCONV
.PROBE64 V(alias(*)) I(alias(*)) W(alias(*)) D(alias(*)) NOISE(alias(*)) 
.INC "..\SCHEMATIC1.net" 



**** INCLUDING SCHEMATIC1.net ****
* source FM
C_C2         N00431 0 10u TC=0
R_R1         N00549 N00431  10k TC=0,0 
L_L1         N00475 N00431 0.178n
L_L2         N00944 N00932 0.285n
X_Q1         N00475 N00549 N00500 awb2n2222 PARAMS:                            
+                 
R_R2         N00509 N00500  56 TC=0,0 
R_R3         0 N00509  100 TC=0,0 
C_C3         0 N00431  0.1u  TC=0,0 
C_C4         N00475 N00431  22p  TC=0,0 
C_C5         N00500 N00475  4.7p  TC=0,0 
C_C6         0 N00549  0.01u  TC=0,0 
C_C7         N00549 N00545  0.001u  TC=0,0 
C_C8         N00545 N00585  0.01u  TC=0,0 
R_R4         0 N00585  10k TC=0,0 
R_R5         N00545 N004090  33k TC=0,0 
R_R6         N00545 N004250  33k TC=0,0 
R_R7         N00944 N00431  3.9k TC=0,0 
R_R8         0 N00944  470 TC=0,0 
C_C9         0 N00944  0.001u  TC=0,0 
C_C10         0 N01060  0.002u  TC=0,0 
C_C11         N01125 N01056  22p  TC=0,0 
C_C12         N01052 0  0.01u  TC=0,0 
C_C13         N01125 0  22p  TC=0,0 
C_C14         N00431 0  0.1u  TC=0,0 
R_R9         0 N01052  10 TC=0,0 
L_L3         N01056 N01060 0.252n
V_V1         N00431 0 9Vdc
V_V2         N004090 0  
+SIN 0 2v 2000 0 0 0
V_V3         N004250 0  
+SIN 0 2v 2000 0 0 0
X_Q3         N01056 N00932 N01052 awb2n2222 PARAMS:                            
+                 
L_L4         N01060 N00431 0.300n
R_R10         N01125 0  1k TC=0,0 

**** RESUMING fm.cir ****
.END

**** 11/13/19 15:42:36 ****** PSpice Lite (October 2012) ****** ID# 10813 ****

 ** Profile: "SCHEMATIC1-fm"  [ d:\rohit pspice\fm-pspicefiles\schematic1\fm.sim ] 


 ****     BJT MODEL PARAMETERS


******************************************************************************




               X_Q1.model4     X_Q3.model4     
               NPN             NPN             
       LEVEL    1               1            
          IS  166.780000E-15  166.780000E-15 
          BF  150             150            
          NF    1.074           1.074        
         VAF   78              78            
         IKF     .5              .5          
         ISE    3.920000E-12    3.920000E-12 
          NE    1.776           1.776        
          BR    2.394           2.394        
          NR    1.074           1.074        
         VAR  500             500            
          NC    1               1            
         ISS    0               0            
          RB   29.324          29.324        
         RBM     .676            .676        
          RE     .1              .1          
          RC    2.346           2.346        
         CJE    6.750000E-12    6.750000E-12 
         VJE    1.333           1.333        
         MJE     .522            .522        
         CJC    9.630000E-12    9.630000E-12 
         VJC    1.333           1.333        
         MJC     .518            .518        
        XCJC     .5              .5          
         CJS    0               0            
         VJS     .7              .7          
         MJS     .5              .5          
          TF  181.600000E-12  181.600000E-12 
         XTF   13.24           13.24         
         VTF    4.83            4.83         
         ITF     .2163           .2163       
          TR   32.500000E-09   32.500000E-09 
         XTB    2.34            2.34         
          KF    0               0            
          AF    1               1            
          CN    2.42            2.42         
           D     .87             .87         


**** 11/13/19 15:42:36 ****** PSpice Lite (October 2012) ****** ID# 10813 ****

 ** Profile: "SCHEMATIC1-fm"  [ d:\rohit pspice\fm-pspicefiles\schematic1\fm.sim ] 


 ****     INITIAL TRANSIENT SOLUTION       TEMPERATURE =   27.000 DEG C


******************************************************************************



 NODE   VOLTAGE     NODE   VOLTAGE     NODE   VOLTAGE     NODE   VOLTAGE


(N00431)    9.0000 (N00475)    9.0000 (N00500)    5.5467 (N00509)    3.5556     

(N00545)    0.0000 (N00549)    6.2833 (N00585)    0.0000 (N00932)     .9089     

(N00944)     .9089 (N01052)     .1964 (N01056)    9.0000 (N01060)    9.0000     

(N01125)    0.0000 (N004090)    0.0000                   (N004250)    0.0000    




    VOLTAGE SOURCE CURRENTS
    NAME         CURRENT

    V_V1        -5.713E-02
    V_V2         0.000E+00
    V_V3         0.000E+00

    TOTAL POWER DISSIPATION   5.14E-01  WATTS



          JOB CONCLUDED

**** 11/13/19 15:42:36 ****** PSpice Lite (October 2012) ****** ID# 10813 ****

 ** Profile: "SCHEMATIC1-fm"  [ d:\rohit pspice\fm-pspicefiles\schematic1\fm.sim ] 


 ****     JOB STATISTICS SUMMARY


******************************************************************************



  Total job time (using Solver 1)   =         .11
